time	V(v+)	I(I1)
Step Information: Illu=86  (Step: 1/7)
0.000000000000000e+00	2.347700e-01	0.000000e+00
1.279999963799128e-07	2.329975e-01	9.149902e-07
2.559999927598255e-07	2.312371e-01	1.820301e-06
5.119999855196511e-07	2.277571e-01	3.601842e-06
1.023999971039302e-06	2.209843e-01	7.048815e-06
2.047999942078604e-06	2.082837e-01	1.348598e-05
4.095999884157209e-06	1.863818e-01	2.465395e-05
8.191999768314417e-06	1.536906e-01	4.157227e-05
1.638399953662883e-05	1.135912e-01	6.199912e-05
3.276799907325767e-05	7.446904e-02	8.075390e-05
6.553599814651534e-05	4.397845e-02	9.422636e-05
1.310719962930307e-04	2.412997e-02	1.024193e-04
2.621439925860614e-04	1.267044e-02	1.069500e-04
5.242879851721227e-04	6.496177e-03	1.093336e-04
1.048575970344245e-03	3.266198e-03	1.105563e-04
2.025138470344245e-03	1.578979e-03	1.110234e-04
3.001700970344245e-03	9.824284e-04	1.113395e-04
3.978263470344245e-03	7.232729e-04	1.114619e-04
4.954825970344245e-03	5.743878e-04	1.115313e-04
5.931388470344245e-03	4.770343e-04	1.115765e-04
6.907950970344245e-03	4.081855e-04	1.116086e-04
7.884513470344245e-03	3.568387e-04	1.116326e-04
8.861075970344245e-03	3.170369e-04	1.116512e-04
9.837638470344245e-03	2.852629e-04	1.116660e-04
1.179076347034425e-02	2.376861e-04	1.116883e-04
1.472045097034425e-02	1.901750e-04	1.117106e-04
1.862670097034425e-02	1.501876e-04	1.117294e-04
2.350951347034425e-02	1.189453e-04	1.117440e-04
3.132201347034425e-02	8.925218e-05	1.117580e-04
4.401732597034425e-02	6.350041e-05	1.117701e-04
6.647826347034425e-02	4.204268e-05	1.117802e-04
1.114001384703442e-01	2.508868e-05	1.117882e-04
2.227282634703442e-01	1.254854e-05	1.117941e-04
6.465563884703442e-01	4.322847e-06	1.117980e-04
9.795642009703442e-01	2.853285e-06	1.117987e-04
9.990954509703442e-01	2.797507e-06	1.117987e-04
1.000000000000000e+00	2.794975e-06	1.117987e-04
Step Information: Illu=320  (Step: 2/7)
0.000000000000000e+00	3.813969e-01	0.000000e+00
2.047999942078604e-06	3.791097e-01	1.928322e-05
4.095999884157209e-06	3.765907e-01	3.846893e-05
8.191999768314417e-06	3.706039e-01	7.648375e-05
1.638399953662883e-05	3.504615e-01	1.503715e-04
3.276799907325767e-05	2.899107e-01	2.701226e-04
6.553599814651534e-05	1.873020e-01	3.430538e-04
1.310719962930307e-04	9.738898e-02	3.788129e-04
2.621439925860614e-04	4.915832e-02	3.974011e-04
5.242879851721227e-04	2.469468e-02	4.066862e-04
1.048575970344245e-03	1.228532e-02	4.113382e-04
2.025138470344245e-03	5.907361e-03	4.135848e-04
3.001700970344245e-03	3.666300e-03	4.140360e-04
3.978263470344245e-03	2.695903e-03	4.146562e-04
4.954825970344245e-03	2.140421e-03	4.149602e-04
5.931388470344245e-03	1.777248e-03	4.151468e-04
6.907950970344245e-03	1.520486e-03	4.152747e-04
7.884513470344245e-03	1.329045e-03	4.153684e-04
8.861075970344245e-03	1.180681e-03	4.154403e-04
9.837638470344245e-03	1.062261e-03	4.154972e-04
1.081420097034425e-02	9.655193e-04	4.155436e-04
1.179076347034425e-02	8.849828e-04	4.155820e-04
1.276732597034425e-02	8.168836e-04	4.156144e-04
1.472045097034425e-02	7.079931e-04	4.156661e-04
1.667357597034425e-02	6.247620e-04	4.157055e-04
1.960326347034425e-02	5.311460e-04	4.157498e-04
2.253295097034425e-02	4.619521e-04	4.157824e-04
2.643920097034425e-02	3.936034e-04	4.158147e-04
3.132201347034425e-02	3.321818e-04	4.158436e-04
3.718138847034425e-02	2.797960e-04	4.158683e-04
4.499388847034425e-02	2.311899e-04	4.158912e-04
5.573607597034425e-02	1.866178e-04	4.159122e-04
7.136107597034425e-02	1.457486e-04	4.159314e-04
9.382201347034425e-02	1.108526e-04	4.159478e-04
1.280017009703442e-01	8.125041e-05	4.159618e-04
1.846423259703442e-01	5.632549e-05	4.159735e-04
2.871813884703442e-01	3.621409e-05	4.159830e-04
5.049548259703442e-01	2.059588e-05	4.159903e-04
9.785876384703442e-01	1.062755e-05	4.159950e-04
9.990954509703442e-01	1.040941e-05	4.159951e-04
1.000000000000000e+00	1.039999e-05	4.159951e-04
Step Information: Illu=700  (Step: 3/7)
0.000000000000000e+00	4.126930e-01	0.000000e+00
4.095999884157209e-06	4.111017e-01	3.966551e-05
1.638399953662883e-05	4.055433e-01	1.580255e-04
3.276799907325767e-05	3.945393e-01	3.137598e-04
6.553599814651534e-05	3.469751e-01	6.074312e-04
1.310719962930307e-04	2.335616e-01	8.185392e-04
2.621439925860614e-04	1.174177e-01	8.671784e-04
5.242879851721227e-04	5.615981e-02	8.889852e-04
1.048575970344245e-03	2.736948e-02	8.996669e-04
2.025138470344245e-03	1.303232e-02	9.046831e-04
3.001700970344245e-03	8.060221e-03	9.064201e-04
3.978263470344245e-03	5.917359e-03	9.067429e-04
4.954825970344245e-03	4.693484e-03	9.075817e-04
5.931388470344245e-03	3.895726e-03	9.080555e-04
6.907950970344245e-03	3.331977e-03	9.083661e-04
7.884513470344245e-03	2.911830e-03	9.085875e-04
8.861075970344245e-03	2.586337e-03	9.087543e-04
9.837638470344245e-03	2.326615e-03	9.088849e-04
1.081420097034425e-02	2.114488e-03	9.089900e-04
1.179076347034425e-02	1.937930e-03	9.090768e-04
1.276732597034425e-02	1.788664e-03	9.091496e-04
1.374388847034425e-02	1.660801e-03	9.092116e-04
1.472045097034425e-02	1.550036e-03	9.092650e-04
1.667357597034425e-02	1.367681e-03	9.093527e-04
1.862670097034425e-02	1.223768e-03	9.094215e-04
2.057982597034425e-02	1.107289e-03	9.094770e-04
2.350951347034425e-02	9.689819e-04	9.095427e-04
2.643920097034425e-02	8.614101e-04	9.095938e-04
3.034545097034425e-02	7.503606e-04	9.096463e-04
3.522826347034425e-02	6.462380e-04	9.096955e-04
4.108763847034425e-02	5.539991e-04	9.097391e-04
4.792357597034425e-02	4.749216e-04	9.097764e-04
5.671263847034425e-02	4.012824e-04	9.098111e-04
6.745482597034425e-02	3.373530e-04	9.098412e-04
8.112670097034425e-02	2.804839e-04	9.098680e-04
9.968138847034425e-02	2.282633e-04	9.098926e-04
1.250720134703442e-01	1.819167e-04	9.099144e-04
1.602282634703442e-01	1.419973e-04	9.099332e-04
2.119860759703442e-01	1.073251e-04	9.099495e-04
2.920642009703442e-01	7.789720e-05	9.099633e-04
4.248767009703442e-01	5.354647e-05	9.099748e-04
6.699938884703442e-01	3.395613e-05	9.099840e-04
9.785876384703442e-01	2.324806e-05	9.099891e-04
9.990954509703442e-01	2.277086e-05	9.099893e-04
1.000000000000000e+00	2.275025e-05	9.099893e-04
Step Information: Illu=3.3K  (Step: 4/7)
0.000000000000000e+00	4.618309e-01	0.000000e+00
6.553599814651534e-05	4.568016e-01	6.504976e-04
1.310719962930307e-04	4.501327e-01	1.298154e-03
2.621439925860614e-04	4.126505e-01	2.575487e-03
5.242879851721227e-04	2.998047e-01	4.156659e-03
1.048575970344245e-03	1.553511e-01	4.235903e-03
2.025138470344245e-03	6.559440e-02	4.262250e-03
3.001700970344245e-03	3.931578e-02	4.272592e-03
3.978263470344245e-03	2.857833e-02	4.276990e-03
4.954825970344245e-03	2.254291e-02	4.279608e-03
5.931388470344245e-03	1.863956e-02	4.278087e-03
6.907950970344245e-03	1.590398e-02	4.280683e-03
7.884513470344245e-03	1.387741e-02	4.282295e-03
8.861075970344245e-03	1.231136e-02	4.283409e-03
9.837638470344245e-03	1.106434e-02	4.284228e-03
1.081420097034425e-02	1.004759e-02	4.284856e-03
1.179076347034425e-02	9.202531e-03	4.285355e-03
1.276732597034425e-02	8.488961e-03	4.285762e-03
1.374388847034425e-02	7.878340e-03	4.286100e-03
1.472045097034425e-02	7.349845e-03	4.286387e-03
1.569701347034425e-02	6.887923e-03	4.286632e-03
1.667357597034425e-02	6.480721e-03	4.286846e-03
1.765013847034425e-02	6.119047e-03	4.287033e-03
1.960326347034425e-02	5.504777e-03	4.287347e-03
2.155638847034425e-02	5.002699e-03	4.287599e-03
2.350951347034425e-02	4.584624e-03	4.287807e-03
2.546263847034425e-02	4.231085e-03	4.287981e-03
2.839232597034425e-02	3.792466e-03	4.288196e-03
3.132201347034425e-02	3.436285e-03	4.288368e-03
3.425170097034425e-02	3.141288e-03	4.288510e-03
3.815795097034425e-02	2.818679e-03	4.288665e-03
4.206420097034425e-02	2.556178e-03	4.288791e-03
4.694701347034425e-02	2.289652e-03	4.288918e-03
5.280638847034425e-02	2.035039e-03	4.289039e-03
5.866576347034425e-02	1.831393e-03	4.289136e-03
6.550170097034425e-02	1.639938e-03	4.289227e-03
7.331420097034425e-02	1.464922e-03	4.289309e-03
8.307982597034425e-02	1.292504e-03	4.289391e-03
9.382201347034425e-02	1.144350e-03	4.289461e-03
1.065173259703442e-01	1.007825e-03	4.289526e-03
1.221423259703442e-01	8.787896e-04	4.289586e-03
1.406970134703442e-01	7.628127e-04	4.289641e-03
1.631579509703442e-01	6.577355e-04	4.289690e-03
1.895251384703442e-01	5.661809e-04	4.289734e-03
2.227282634703442e-01	4.817397e-04	4.289773e-03
2.637438884703442e-01	4.067946e-04	4.289809e-03
3.155017009703442e-01	3.400393e-04	4.289840e-03
3.828845134703442e-01	2.801814e-04	4.289868e-03
4.717517009703442e-01	2.273907e-04	4.289893e-03
5.918688884703442e-01	1.812352e-04	4.289915e-03
7.608142009703442e-01	1.409852e-04	4.289933e-03
9.785876384703442e-01	1.096075e-04	4.289948e-03
9.990954509703442e-01	1.073574e-04	4.289949e-03
1.000000000000000e+00	1.072602e-04	4.289949e-03
Step Information: Illu=7.2K  (Step: 5/7)
0.000000000000000e+00	4.846517e-01	0.000000e+00
2.621439925860614e-04	4.745140e-01	2.614961e-03
5.242879851721227e-04	4.428013e-01	5.211117e-03
1.048575970344245e-03	3.347487e-01	9.175821e-03
2.025138470344245e-03	1.681584e-01	9.297715e-03
3.001700970344245e-03	9.110861e-02	9.318979e-03
3.978263470344245e-03	6.486616e-02	9.330507e-03
4.954825970344245e-03	5.068325e-02	9.336666e-03
5.931388470344245e-03	4.167961e-02	9.340677e-03
6.907950970344245e-03	3.542137e-02	9.343509e-03
7.884513470344245e-03	3.080686e-02	9.339248e-03
8.861075970344245e-03	2.726884e-02	9.343026e-03
9.837638470344245e-03	2.446884e-02	9.345565e-03
1.081420097034425e-02	2.219215e-02	9.347421e-03
1.179076347034425e-02	2.030431e-02	9.348837e-03
1.276732597034425e-02	1.871331e-02	9.349953e-03
1.374388847034425e-02	1.735410e-02	9.350856e-03
1.472045097034425e-02	1.617938e-02	9.351603e-03
1.569701347034425e-02	1.515389e-02	9.352230e-03
1.667357597034425e-02	1.425087e-02	9.352768e-03
1.765013847034425e-02	1.344958e-02	9.353232e-03
1.862670097034425e-02	1.273372e-02	9.353638e-03
2.057982597034425e-02	1.150886e-02	9.354314e-03
2.253295097034425e-02	1.049918e-02	9.354856e-03
2.448607597034425e-02	9.652500e-03	9.355301e-03
2.643920097034425e-02	8.932280e-03	9.355674e-03
2.936888847034425e-02	8.033295e-03	9.356131e-03
3.229857597034425e-02	7.298799e-03	9.356499e-03
3.522826347034425e-02	6.687415e-03	9.356802e-03
3.913451347034425e-02	6.015605e-03	9.357132e-03
4.304076347034425e-02	5.466485e-03	9.357400e-03
4.792357597034425e-02	4.906653e-03	9.357671e-03
5.280638847034425e-02	4.450855e-03	9.357891e-03
5.866576347034425e-02	4.004481e-03	9.358105e-03
6.550170097034425e-02	3.585030e-03	9.358305e-03
7.233763847034425e-02	3.245127e-03	9.358468e-03
8.015013847034425e-02	2.927880e-03	9.358618e-03
8.893920097034425e-02	2.637778e-03	9.358755e-03
9.968138847034425e-02	2.352850e-03	9.358890e-03
1.114001384703442e-01	2.104825e-03	9.359008e-03
1.250720134703442e-01	1.874316e-03	9.359117e-03
1.406970134703442e-01	1.665824e-03	9.359215e-03
1.592517009703442e-01	1.471456e-03	9.359307e-03
1.807360759703442e-01	1.296320e-03	9.359390e-03
2.051501384703442e-01	1.141879e-03	9.359462e-03
2.344470134703442e-01	9.990500e-04	9.359529e-03
2.686267009703442e-01	8.718250e-04	9.359590e-03
3.096423259703442e-01	7.562576e-04	9.359644e-03
3.584704509703442e-01	6.531811e-04	9.359692e-03
4.180407634703442e-01	5.600534e-04	9.359736e-03
4.912829509703442e-01	4.765205e-04	9.359776e-03
5.830798259703442e-01	4.014709e-04	9.359811e-03
6.992907634703442e-01	3.347315e-04	9.359842e-03
8.496813884703442e-01	2.754696e-04	9.359870e-03
9.785876384703442e-01	2.391746e-04	9.359888e-03
9.990954509703442e-01	2.342641e-04	9.359890e-03
1.000000000000000e+00	2.340520e-04	9.359890e-03
Step Information: Illu=21.7K  (Step: 6/7)
0.000000000000000e+00	5.162839e-01	0.000000e+00
5.242879851721227e-04	5.102183e-01	5.242880e-03
1.048575970344245e-03	5.014337e-01	1.048576e-02
2.025138470344245e-03	4.575659e-01	2.021929e-02
3.001700970344245e-03	3.607821e-01	2.789420e-02
3.978263470344245e-03	2.490422e-01	2.809303e-02
4.954825970344245e-03	1.772286e-01	2.812202e-02
5.931388470344245e-03	1.403616e-01	2.814453e-02
6.907950970344245e-03	1.167457e-01	2.815566e-02
7.884513470344245e-03	1.001149e-01	2.816331e-02
8.861075970344245e-03	8.771265e-02	2.816902e-02
9.837638470344245e-03	7.806796e-02	2.817346e-02
1.081420097034425e-02	7.033890e-02	2.815179e-02
1.179076347034425e-02	6.403179e-02	2.816187e-02
1.276732597034425e-02	5.878614e-02	2.816867e-02
1.374388847034425e-02	5.433818e-02	2.817382e-02
1.472045097034425e-02	5.051853e-02	2.817783e-02
1.569701347034425e-02	4.720245e-02	2.818102e-02
1.667357597034425e-02	4.429625e-02	2.818363e-02
1.765013847034425e-02	4.172815e-02	2.818579e-02
1.862670097034425e-02	3.944227e-02	2.818761e-02
1.960326347034425e-02	3.739441e-02	2.818917e-02
2.155638847034425e-02	3.387780e-02	2.819168e-02
2.350951347034425e-02	3.096678e-02	2.819363e-02
2.546263847034425e-02	2.851713e-02	2.819519e-02
2.741576347034425e-02	2.642708e-02	2.819647e-02
3.034545097034425e-02	2.381009e-02	2.819800e-02
3.327513847034425e-02	2.166511e-02	2.819921e-02
3.620482597034425e-02	1.987492e-02	2.820019e-02
3.913451347034425e-02	1.835817e-02	2.820100e-02
4.304076347034425e-02	1.666286e-02	2.820189e-02
4.694701347034425e-02	1.525432e-02	2.820262e-02
5.182982597034425e-02	1.379662e-02	2.820336e-02
5.671263847034425e-02	1.259330e-02	2.820396e-02
6.257201347034425e-02	1.140019e-02	2.820455e-02
6.940795097034425e-02	1.026558e-02	2.820511e-02
7.624388847034425e-02	9.336401e-03	2.820556e-02
8.405638847034425e-02	8.461169e-03	2.820599e-02
9.284545097034425e-02	7.653987e-03	2.820637e-02
1.026110759703442e-01	6.920448e-03	2.820672e-02
1.133532634703442e-01	6.260473e-03	2.820704e-02
1.260485759703442e-01	5.626363e-03	2.820734e-02
1.397204509703442e-01	5.073010e-03	2.820761e-02
1.553454509703442e-01	4.560423e-03	2.820785e-02
1.729235759703442e-01	4.094946e-03	2.820807e-02
1.924548259703442e-01	3.677845e-03	2.820827e-02
2.149157634703442e-01	3.292210e-03	2.820845e-02
2.403063884703442e-01	2.943338e-03	2.820861e-02
2.686267009703442e-01	2.632221e-03	2.820876e-02
3.008532634703442e-01	2.349607e-03	2.820889e-02
3.379626384703442e-01	2.091078e-03	2.820902e-02
3.799548259703442e-01	1.859548e-03	2.820912e-02
4.287829509703442e-01	1.647445e-03	2.820922e-02
4.854235759703442e-01	1.454939e-03	2.820932e-02
5.508532634703442e-01	1.281904e-03	2.820940e-02
6.270251384703442e-01	1.126004e-03	2.820947e-02
7.168688884703442e-01	9.847466e-04	2.820954e-02
8.233142009703442e-01	8.573222e-04	2.820960e-02
9.502673259703442e-01	7.427024e-04	2.820965e-02
9.785876384703442e-01	7.211933e-04	2.820966e-02
9.990954509703442e-01	7.063795e-04	2.820967e-02
1.000000000000000e+00	7.057398e-04	2.820967e-02
Step Information: Illu=61.4K  (Step: 7/7)
0.000000000000000e+00	5.458323e-01	0.000000e+00
3.001700970344245e-03	5.321805e-01	3.001701e-02
4.954825970344245e-03	5.175802e-01	4.954826e-02
5.931388470344245e-03	5.054485e-01	5.931389e-02
6.907950970344245e-03	4.812568e-01	6.904441e-02
7.884513470344245e-03	4.273970e-01	7.771769e-02
8.861075970344245e-03	3.507181e-01	7.958675e-02
9.837638470344245e-03	2.868955e-01	7.963841e-02
1.081420097034425e-02	2.460924e-01	7.969885e-02
1.179076347034425e-02	2.170115e-01	7.971684e-02
1.276732597034425e-02	1.946646e-01	7.972823e-02
1.374388847034425e-02	1.767919e-01	7.973686e-02
1.472045097034425e-02	1.620923e-01	7.974383e-02
1.569701347034425e-02	1.497494e-01	7.974964e-02
1.667357597034425e-02	1.391882e-01	7.975459e-02
1.765013847034425e-02	1.300326e-01	7.969979e-02
1.862670097034425e-02	1.220647e-01	7.971640e-02
1.960326347034425e-02	1.150636e-01	7.972790e-02
2.057982597034425e-02	1.088340e-01	7.973721e-02
2.155638847034425e-02	1.032539e-01	7.974485e-02
2.350951347034425e-02	9.366944e-02	7.975658e-02
2.546263847034425e-02	8.572946e-02	7.976513e-02
2.741576347034425e-02	7.904072e-02	7.977160e-02
2.936888847034425e-02	7.332703e-02	7.977667e-02
3.229857597034425e-02	6.616178e-02	7.978249e-02
3.522826347034425e-02	6.027815e-02	7.978688e-02
3.815795097034425e-02	5.535922e-02	7.979031e-02
4.108763847034425e-02	5.118496e-02	7.979307e-02
4.499388847034425e-02	4.651145e-02	7.979599e-02
4.890013847034425e-02	4.262172e-02	7.979833e-02
5.378295097034425e-02	3.858936e-02	7.980065e-02
5.866576347034425e-02	3.525509e-02	7.980251e-02
6.452513847034425e-02	3.194393e-02	7.980430e-02
7.038451347034425e-02	2.920191e-02	7.980575e-02
7.722045097034425e-02	2.654415e-02	7.980713e-02
8.503295097034425e-02	2.404365e-02	7.980841e-02
9.382201347034425e-02	2.174002e-02	7.980956e-02
1.035876384703442e-01	1.964855e-02	7.981060e-02
1.143298259703442e-01	1.776840e-02	7.981153e-02
1.260485759703442e-01	1.608902e-02	7.981235e-02
1.387438884703442e-01	1.459473e-02	7.981307e-02
1.533923259703442e-01	1.318214e-02	7.981375e-02
1.690173259703442e-01	1.194861e-02	7.981434e-02
1.865954509703442e-01	1.081059e-02	7.981489e-02
2.061267009703442e-01	9.776060e-03	7.981538e-02
2.285876384703442e-01	8.806881e-03	7.981584e-02
2.530017009703442e-01	7.950192e-03	7.981625e-02
2.803454509703442e-01	7.169142e-03	7.981662e-02
3.106188884703442e-01	6.465865e-03	7.981695e-02
3.447985759703442e-01	5.821147e-03	7.981726e-02
3.828845134703442e-01	5.239058e-03	7.981753e-02
4.258532634703442e-01	4.707933e-03	7.981778e-02
4.746813884703442e-01	4.221599e-03	7.981801e-02
5.293688884703442e-01	3.783823e-03	7.981822e-02
5.908923259703442e-01	3.388515e-03	7.981841e-02
6.602282634703442e-01	3.031579e-03	7.981857e-02
7.393298259703442e-01	2.706350e-03	7.981873e-02
8.291735759703442e-01	2.412400e-03	7.981887e-02
9.317126384703442e-01	2.146336e-03	7.981899e-02
9.785876384703442e-01	2.043315e-03	7.981904e-02
9.990954509703442e-01	2.001289e-03	7.981906e-02
1.000000000000000e+00	1.999474e-03	7.981906e-02
